Logging started @ 2023-10-26 17:44
DLL version: V7.92j, Compiled: Oct 12 2023 14:45:34
T00A0 005:117.732   Firmware: J-Link V12 compiled Nov 14 2022 17:38:51
T00A0 005:120.589   Firmware: J-Link V12 compiled Nov 14 2022 17:38:51
T00A0 005:158.651   Hardware: V12.00
T00A0 005:158.687   S/N: 852000626
T00A0 005:158.695   OEM: SEGGER
T00A0 005:158.702   Feature(s): RDI, FlashBP, FlashDL, JFlash, GDB
T00A0 005:166.731   Bootloader: (Could not read)
T00A0 005:172.342   USB speed mode: High speed (480 MBit/s)
T00A0 005:175.386   TELNET listener socket opened on port 19021
T00A0 005:175.519   WEBSRV WEBSRV_Init(): Starting webserver thread(s)
T00A0 005:175.680   WEBSRV Webserver running on local port 19080
T00A0 005:175.794   Looking for J-Link GUI Server exe at: C:\Program Files\IAR Systems\Embedded Workbench 9.0\arm\bin\JLinkGUIServer.exe
T00A0 005:175.940   Looking for J-Link GUI Server exe at: C:\Program Files\SEGGER\JLink\JLinkGUIServer.exe
T00A0 005:175.995   Forking J-Link GUI Server: C:\Program Files\SEGGER\JLink\JLinkGUIServer.exe
T00A0 005:179.588   J-Link GUI Server info: "J-Link GUI server V7.92j "
T00A0 005:180.115 - 240.099ms returns "O.K."
T00A0 005:181.928 JLINK_ExecCommand("ProjectFile = C:\Users\rozzie\dev\cygnet\System\EWARM\settings\cygnet_cygnet.jlink", ...). 
T00A0 005:205.729   Ref file found at: C:\Program Files\IAR Systems\Embedded Workbench 9.0\arm\bin\JLinkDevices.ref
T00A0 005:205.851   REF file references invalid XML file: C:\Program Files\SEGGER\JLink\JLinkDevices.xml
T00A0 005:206.028 - 24.103ms returns 0x00
T00A0 005:206.579 JLINK_ExecCommand("device = STM32L433CC", ...). 
T00A0 005:207.186   Flash bank @ 0x08000000: SFL: Parsing sectorization info from ELF file
T00A0 005:207.198     FlashDevice.SectorInfo[0]: .SectorSize = 0x00000800, .SectorStartAddr = 0x00000000
T00A0 005:207.207   FlashBank @0x08000000: Sectorization info from SFL ELF file ignored because sectorization override from DLL / XML file is active.
T00A0 005:207.511   Device "STM32L433CC" selected.
T00A0 005:207.769 - 1.146ms returns 0x00
T00A0 005:207.784 JLINK_GetDLLVersion()
T00A0 005:207.791 - 0.007ms returns 79210
T00A0 005:207.845 JLINK_GetCompileDateTime()
T00A0 005:207.853 - 0.008ms
T00A0 005:207.946 JLINK_GetFirmwareString(...)
T00A0 005:207.956 - 0.009ms
T00A0 005:208.033 JLINK_TIF_Select(JLINKARM_TIF_SWD)
T00A0 005:213.861 - 5.827ms returns 0x00
T00A0 005:213.984 JLINK_SelectDeviceFamily(14)
T00A0 005:213.998 - 0.014ms
T00A0 005:214.083 JLINK_SetSpeed(1000)
T00A0 005:215.203 - 1.120ms
T00A0 005:215.254 JLINK_SetResetType(JLINKARM_RESET_TYPE_NORMAL)
T00A0 005:215.264 - 0.009ms returns JLINKARM_RESET_TYPE_NORMAL
T00A0 005:215.275 JLINK_ExecCommand("SetResetPulseLen = 200", ...). 
T00A0 005:215.288 - 0.003ms returns 0x14
T00A0 005:215.299 JLINK_SetResetDelay(0)
T00A0 005:215.305 - 0.006ms
T00A0 005:215.313 JLINK_ResetPullsRESET(ON)
T00A0 005:215.318 - 0.005ms
T00A0 005:215.331 JLINK_Reset()
T00A0 005:216.855   InitTarget() start
T00A0 005:216.876    J-Link Script File: Executing InitTarget()
T00A0 005:218.436   SWD selected. Executing JTAG -> SWD switching sequence.
T00A0 005:227.793   DAP initialized successfully.
T00A0 005:276.804   InitTarget() end - Took 59.8ms
T00A0 005:279.994   Found SW-DP with ID 0x2BA01477
T00A0 005:291.156   DPIDR: 0x2BA01477
T00A0 005:291.249   CoreSight SoC-400 or earlier
T00A0 005:291.300   Scanning AP map to find all available APs
T00A0 005:294.430   AP[1]: Stopped AP scan as end of AP map has been reached
T00A0 005:294.496   AP[0]: AHB-AP (IDR: 0x24770011)
T00A0 005:294.551   Iterating through AP map to find AHB-AP to use
T00A0 005:297.909   AP[0]: Core found
T00A0 005:297.978   AP[0]: AHB-AP ROM base: 0xE00FF000
T00A0 005:299.686   CPUID register: 0x410FC241. Implementer code: 0x41 (ARM)
T00A0 005:299.738   Found Cortex-M4 r0p1, Little endian.
T00A0 005:303.708   -- Max. mem block: 0x00004E90
T00A0 005:306.615   CPU_ReadMem(4 bytes @ 0xE000EDF0)
T00A0 005:308.368   CPU_ReadMem(4 bytes @ 0xE0002000)
T00A0 005:310.190   FPUnit: 6 code (BP) slots and 2 literal slots
T00A0 005:310.271   CPU_ReadMem(4 bytes @ 0xE000EDFC)
T00A0 005:311.965   CPU_WriteMem(4 bytes @ 0xE000EDFC)
T00A0 005:313.705   CPU_ReadMem(4 bytes @ 0xE0001000)
T00A0 005:315.416   CPU_WriteMem(4 bytes @ 0xE0001000)
T00A0 005:317.126   CPU_ReadMem(4 bytes @ 0xE000ED88)
T00A0 005:318.749   CPU_WriteMem(4 bytes @ 0xE000ED88)
T00A0 005:320.470   CPU_ReadMem(4 bytes @ 0xE000ED88)
T00A0 005:322.092   CPU_WriteMem(4 bytes @ 0xE000ED88)
T00A0 005:323.860   CoreSight components:
T00A0 005:323.908   ROMTbl[0] @ E00FF000
T00A0 005:323.926   CPU_ReadMem(64 bytes @ 0xE00FF000)
T00A0 005:326.277   CPU_ReadMem(32 bytes @ 0xE000EFE0)
T00A0 005:328.408   [0][0]: E000E000 CID B105E00D PID 000BB00C SCS-M7
T00A0 005:328.422   CPU_ReadMem(32 bytes @ 0xE0001FE0)
T00A0 005:330.641   [0][1]: E0001000 CID B105E00D PID 003BB002 DWT
T00A0 005:330.656   CPU_ReadMem(32 bytes @ 0xE0002FE0)
T00A0 005:332.758   [0][2]: E0002000 CID B105E00D PID 002BB003 FPB
T00A0 005:332.773   CPU_ReadMem(32 bytes @ 0xE0000FE0)
T00A0 005:334.898   [0][3]: E0000000 CID B105E00D PID 003BB001 ITM
T00A0 005:334.913   CPU_ReadMem(32 bytes @ 0xE0040FE0)
T00A0 005:337.055   [0][4]: E0040000 CID B105900D PID 000BB9A1 TPIU
T00A0 005:337.074   CPU_ReadMem(32 bytes @ 0xE0041FE0)
T00A0 005:339.206   [0][5]: E0041000 CID B105900D PID 000BB925 ETM
T00A0 005:339.301   CPU is running
T00A0 005:339.318   CPU_WriteMem(4 bytes @ 0xE000EDF0)
T00A0 005:341.095   CPU is running
T00A0 005:341.118   CPU_WriteMem(4 bytes @ 0xE000EDFC)
T00A0 005:342.900   Reset: Halt core after reset via DEMCR.VC_CORERESET.
T00A0 005:345.893   Reset: Reset device via AIRCR.SYSRESETREQ.
T00A0 005:345.914   CPU is running
T00A0 005:345.927   CPU_WriteMem(4 bytes @ 0xE000ED0C)
T00A0 005:405.695   CPU_ReadMem(4 bytes @ 0xE000EDF0)
T00A0 005:406.849   CPU_ReadMem(4 bytes @ 0xE000EDF0)
T00A0 005:417.374   CPU_WriteMem(4 bytes @ 0xE000EDFC)
T00A0 005:425.541   CPU_ReadMem(4 bytes @ 0xE000EDF0)
T00A0 005:436.119   CPU_WriteMem(4 bytes @ 0xE0002000)
T00A0 005:437.952   CPU_ReadMem(4 bytes @ 0xE000EDFC)
T00A0 005:439.885   CPU_ReadMem(4 bytes @ 0xE0001000)
T00A0 005:441.834 - 226.502ms
T00A0 005:442.431 JLINK_IsHalted()
T00A0 005:442.469 - 0.038ms returns TRUE
T00A0 005:442.496 JLINK_Halt()
T00A0 005:442.509 - 0.012ms returns 0x00
T00A0 005:444.718 JLINK_ExecCommand("InvalidateCache", ...). 
T00A0 005:444.780 - 0.023ms returns 0x00
T00A0 005:444.898 JLINK_ReadMemU32(0xE000ED00, 0x1 Items)
T00A0 005:444.956   CPU_ReadMem(4 bytes @ 0xE000ED00)
T00A0 005:446.795   Data:  41 C2 0F 41
T00A0 005:446.812   Debug reg: CPUID
T00A0 005:446.822 - 1.926ms returns 1 (0x1)
T00A0 005:446.856 JLINK_ReadMemU32(0xE00FF000, 0x1 Items)
T00A0 005:446.870   CPU_ReadMem(4 bytes @ 0xE00FF000)
T00A0 005:448.599   Data:  03 F0 F0 FF
T00A0 005:448.615 - 1.759ms returns 1 (0x1)
T00A0 005:448.631 JLINK_ReadMemU32(0xE00FF004, 0x1 Items)
T00A0 005:448.644   CPU_ReadMem(4 bytes @ 0xE00FF004)
T00A0 005:450.343   Data:  03 20 F0 FF
T00A0 005:450.359 - 1.727ms returns 1 (0x1)
T00A0 005:450.375 JLINK_ReadMemU32(0xE00FF008, 0x1 Items)
T00A0 005:450.387   CPU_ReadMem(4 bytes @ 0xE00FF008)
T00A0 005:452.040   Data:  03 30 F0 FF
T00A0 005:452.055 - 1.680ms returns 1 (0x1)
T00A0 005:452.077 JLINK_ReadMemU32(0xE00FF00C, 0x1 Items)
T00A0 005:452.089   CPU_ReadMem(4 bytes @ 0xE00FF00C)
T00A0 005:453.779   Data:  03 10 F0 FF
T00A0 005:453.794 - 1.717ms returns 1 (0x1)
T00A0 005:453.809 JLINK_ReadMemU32(0xE00FF010, 0x1 Items)
T00A0 005:453.820   CPU_ReadMem(4 bytes @ 0xE00FF010)
T00A0 005:455.521   Data:  03 10 F4 FF
T00A0 005:455.538 - 1.729ms returns 1 (0x1)
T00A0 005:455.554 JLINK_ReadMemU32(0xE00FF014, 0x1 Items)
T00A0 005:455.565   CPU_ReadMem(4 bytes @ 0xE00FF014)
T00A0 005:457.275   Data:  03 20 F4 FF
T00A0 005:457.290 - 1.736ms returns 1 (0x1)
T00A0 005:457.308 JLINK_ReadMemU32(0xE00FF018, 0x1 Items)
T00A0 005:457.319   CPU_ReadMem(4 bytes @ 0xE00FF018)
T00A0 005:459.019   Data:  00 00 00 00
T00A0 005:459.034 - 1.726ms returns 1 (0x1)
T00A0 005:459.048 JLINK_ReadMemU32(0xE00FFFD0, 0x1 Items)
T00A0 005:459.065   CPU_ReadMem(4 bytes @ 0xE00FFFD0)
T00A0 005:460.632   Data:  00 00 00 00
T00A0 005:460.648 - 1.600ms returns 1 (0x1)
T00A0 005:460.663 JLINK_ReadMemU32(0xE00FFFD4, 0x1 Items)
T00A0 005:460.674   CPU_ReadMem(4 bytes @ 0xE00FFFD4)
T00A0 005:462.500   Data:  00 00 00 00
T00A0 005:462.528 - 1.864ms returns 1 (0x1)
T00A0 005:462.555 JLINK_ReadMemU32(0xE00FFFD8, 0x1 Items)
T00A0 005:462.594   CPU_ReadMem(4 bytes @ 0xE00FFFD8)
T00A0 005:464.322   Data:  00 00 00 00
T00A0 005:464.338 - 1.783ms returns 1 (0x1)
T00A0 005:464.352 JLINK_ReadMemU32(0xE00FFFDC, 0x1 Items)
T00A0 005:464.363   CPU_ReadMem(4 bytes @ 0xE00FFFDC)
T00A0 005:466.075   Data:  00 00 00 00
T00A0 005:466.103 - 1.749ms returns 1 (0x1)
T00A0 005:466.129 JLINK_ReadMemU32(0xE00FFFE0, 0x1 Items)
T00A0 005:466.149   CPU_ReadMem(4 bytes @ 0xE00FFFE0)
T00A0 005:467.874   Data:  35 00 00 00
T00A0 005:467.888 - 1.759ms returns 1 (0x1)
T00A0 005:467.907 JLINK_ReadMemU32(0xE00FFFE4, 0x1 Items)
T00A0 005:467.919   CPU_ReadMem(4 bytes @ 0xE00FFFE4)
T00A0 005:469.614   Data:  04 00 00 00
T00A0 005:469.629 - 1.721ms returns 1 (0x1)
T00A0 005:469.647 JLINK_ReadMemU32(0xE00FFFE8, 0x1 Items)
T00A0 005:469.658   CPU_ReadMem(4 bytes @ 0xE00FFFE8)
T00A0 005:471.369   Data:  0A 00 00 00
T00A0 005:471.388 - 1.740ms returns 1 (0x1)
T00A0 005:471.412 JLINK_ReadMemU32(0xE00FFFEC, 0x1 Items)
T00A0 005:471.425   CPU_ReadMem(4 bytes @ 0xE00FFFEC)
T00A0 005:472.187   Data:  00 00 00 00
T00A0 005:472.203 - 0.791ms returns 1 (0x1)
T00A0 005:472.222 JLINK_ReadMemU32(0xE00FFFF0, 0x1 Items)
T00A0 005:472.235   CPU_ReadMem(4 bytes @ 0xE00FFFF0)
T00A0 005:474.000   Data:  0D 00 00 00
T00A0 005:474.058 - 1.835ms returns 1 (0x1)
T00A0 005:474.104 JLINK_ReadMemU32(0xE00FFFF4, 0x1 Items)
T00A0 005:474.133   CPU_ReadMem(4 bytes @ 0xE00FFFF4)
T00A0 005:475.902   Data:  10 00 00 00
T00A0 005:475.927 - 1.824ms returns 1 (0x1)
T00A0 005:475.945 JLINK_ReadMemU32(0xE00FFFF8, 0x1 Items)
T00A0 005:475.957   CPU_ReadMem(4 bytes @ 0xE00FFFF8)
T00A0 005:477.644   Data:  05 00 00 00
T00A0 005:477.660 - 1.714ms returns 1 (0x1)
T00A0 005:477.679 JLINK_ReadMemU32(0xE00FFFFC, 0x1 Items)
T00A0 005:477.691   CPU_ReadMem(4 bytes @ 0xE00FFFFC)
T00A0 005:479.384   Data:  B1 00 00 00
T00A0 005:479.399 - 1.720ms returns 1 (0x1)
T00A0 005:479.419 JLINK_ReadMemU32(0xE000EFD0, 0x1 Items)
T00A0 005:479.431   CPU_ReadMem(4 bytes @ 0xE000EFD0)
T00A0 005:481.118   Data:  04 00 00 00
T00A0 005:481.133 - 1.714ms returns 1 (0x1)
T00A0 005:481.151 JLINK_ReadMemU32(0xE000EFD4, 0x1 Items)
T00A0 005:481.163   CPU_ReadMem(4 bytes @ 0xE000EFD4)
T00A0 005:482.855   Data:  00 00 00 00
T00A0 005:482.869 - 1.718ms returns 1 (0x1)
T00A0 005:482.888 JLINK_ReadMemU32(0xE000EFD8, 0x1 Items)
T00A0 005:482.899   CPU_ReadMem(4 bytes @ 0xE000EFD8)
T00A0 005:484.585   Data:  00 00 00 00
T00A0 005:484.600 - 1.712ms returns 1 (0x1)
T00A0 005:484.619 JLINK_ReadMemU32(0xE000EFDC, 0x1 Items)
T00A0 005:484.631   CPU_ReadMem(4 bytes @ 0xE000EFDC)
T00A0 005:485.496   Data:  00 00 00 00
T00A0 005:485.511 - 0.891ms returns 1 (0x1)
T00A0 005:485.530 JLINK_ReadMemU32(0xE000EFE0, 0x1 Items)
T00A0 005:485.542   CPU_ReadMem(4 bytes @ 0xE000EFE0)
T00A0 005:487.223   Data:  0C 00 00 00
T00A0 005:487.238 - 1.707ms returns 1 (0x1)
T00A0 005:487.256 JLINK_ReadMemU32(0xE000EFE4, 0x1 Items)
T00A0 005:487.268   CPU_ReadMem(4 bytes @ 0xE000EFE4)
T00A0 005:488.965   Data:  B0 00 00 00
T00A0 005:488.980 - 1.723ms returns 1 (0x1)
T00A0 005:488.998 JLINK_ReadMemU32(0xE000EFE8, 0x1 Items)
T00A0 005:489.009   CPU_ReadMem(4 bytes @ 0xE000EFE8)
T00A0 005:490.734   Data:  0B 00 00 00
T00A0 005:490.748 - 1.750ms returns 1 (0x1)
T00A0 005:490.767 JLINK_ReadMemU32(0xE000EFEC, 0x1 Items)
T00A0 005:490.778   CPU_ReadMem(4 bytes @ 0xE000EFEC)
T00A0 005:492.458   Data:  00 00 00 00
T00A0 005:492.473 - 1.706ms returns 1 (0x1)
T00A0 005:492.491 JLINK_ReadMemU32(0xE000EFF0, 0x1 Items)
T00A0 005:492.502   CPU_ReadMem(4 bytes @ 0xE000EFF0)
T00A0 005:494.526   Data:  0D 00 00 00
T00A0 005:494.674 - 2.180ms returns 1 (0x1)
T00A0 005:494.726 JLINK_ReadMemU32(0xE000EFF4, 0x1 Items)
T00A0 005:494.753   CPU_ReadMem(4 bytes @ 0xE000EFF4)
T00A0 005:496.348   Data:  E0 00 00 00
T00A0 005:496.366 - 1.639ms returns 1 (0x1)
T00A0 005:496.388 JLINK_ReadMemU32(0xE000EFF8, 0x1 Items)
T00A0 005:496.400   CPU_ReadMem(4 bytes @ 0xE000EFF8)
T00A0 005:498.356   Data:  05 00 00 00
T00A0 005:498.394 - 2.004ms returns 1 (0x1)
T00A0 005:498.438 JLINK_ReadMemU32(0xE000EFFC, 0x1 Items)
T00A0 005:498.489   CPU_ReadMem(4 bytes @ 0xE000EFFC)
T00A0 005:500.258   Data:  B1 00 00 00
T00A0 005:500.274 - 1.836ms returns 1 (0x1)
T00A0 005:500.292 JLINK_ReadMemU32(0xE0001FD0, 0x1 Items)
T00A0 005:500.304   CPU_ReadMem(4 bytes @ 0xE0001FD0)
T00A0 005:502.278   Data:  04 00 00 00
T00A0 005:502.384   Debug reg: DWT_PID4
T00A0 005:502.403 - 2.108ms returns 1 (0x1)
T00A0 005:503.106 JLINK_ReadMemU32(0xE0001FD4, 0x1 Items)
T00A0 005:503.160   CPU_ReadMem(4 bytes @ 0xE0001FD4)
T00A0 005:505.121   Data:  00 00 00 00
T00A0 005:505.174   Debug reg: DWT_PID5
T00A0 005:505.259 - 2.154ms returns 1 (0x1)
T00A0 005:505.370 JLINK_ReadMemU32(0xE0001FD8, 0x1 Items)
T00A0 005:505.443   CPU_ReadMem(4 bytes @ 0xE0001FD8)
T00A0 005:508.180   Data:  00 00 00 00
T00A0 005:508.250   Debug reg: DWT_PID6
T00A0 005:508.268 - 2.898ms returns 1 (0x1)
T00A0 005:508.319 JLINK_ReadMemU32(0xE0001FDC, 0x1 Items)
T00A0 005:508.354   CPU_ReadMem(4 bytes @ 0xE0001FDC)
T00A0 005:510.258   Data:  00 00 00 00
T00A0 005:510.335   Debug reg: DWT_PID7
T00A0 005:510.356 - 2.036ms returns 1 (0x1)
T00A0 005:510.531 JLINK_ReadMemU32(0xE0001FE0, 0x1 Items)
T00A0 005:510.606   CPU_ReadMem(4 bytes @ 0xE0001FE0)
T00A0 005:512.484   Data:  02 00 00 00
T00A0 005:512.543   Debug reg: DWT_PID[0]
T00A0 005:512.560 - 2.029ms returns 1 (0x1)
T00A0 005:512.607 JLINK_ReadMemU32(0xE0001FE4, 0x1 Items)
T00A0 005:512.639   CPU_ReadMem(4 bytes @ 0xE0001FE4)
T00A0 005:514.578   Data:  B0 00 00 00
T00A0 005:514.642   Debug reg: DWT_PID[1]
T00A0 005:514.658 - 2.051ms returns 1 (0x1)
T00A0 005:514.704 JLINK_ReadMemU32(0xE0001FE8, 0x1 Items)
T00A0 005:514.749   CPU_ReadMem(4 bytes @ 0xE0001FE8)
T00A0 005:517.146   Data:  3B 00 00 00
T00A0 005:518.850   Debug reg: DWT_PID[2]
T00A0 005:518.870 - 4.165ms returns 1 (0x1)
T00A0 005:518.924 JLINK_ReadMemU32(0xE0001FEC, 0x1 Items)
T00A0 005:518.966   CPU_ReadMem(4 bytes @ 0xE0001FEC)
T00A0 005:519.904   Data:  00 00 00 00
T00A0 005:519.958   Debug reg: DWT_PID[3]
T00A0 005:519.974 - 1.049ms returns 1 (0x1)
T00A0 005:520.019 JLINK_ReadMemU32(0xE0001FF0, 0x1 Items)
T00A0 005:520.050   CPU_ReadMem(4 bytes @ 0xE0001FF0)
T00A0 005:523.160   Data:  0D 00 00 00
T00A0 005:523.250   Debug reg: DWT_CID[0]
T00A0 005:523.267 - 3.247ms returns 1 (0x1)
T00A0 005:523.330 JLINK_ReadMemU32(0xE0001FF4, 0x1 Items)
T00A0 005:523.366   CPU_ReadMem(4 bytes @ 0xE0001FF4)
T00A0 005:525.401   Data:  E0 00 00 00
T00A0 005:525.509   Debug reg: DWT_CID[1]
T00A0 005:525.536 - 2.204ms returns 1 (0x1)
T00A0 005:525.614 JLINK_ReadMemU32(0xE0001FF8, 0x1 Items)
T00A0 005:525.661   CPU_ReadMem(4 bytes @ 0xE0001FF8)
T00A0 005:527.613   Data:  05 00 00 00
T00A0 005:527.670   Debug reg: DWT_CID[2]
T00A0 005:527.686 - 2.072ms returns 1 (0x1)
T00A0 005:527.737 JLINK_ReadMemU32(0xE0001FFC, 0x1 Items)
T00A0 005:527.770   CPU_ReadMem(4 bytes @ 0xE0001FFC)
T00A0 005:530.807   Data:  B1 00 00 00
T00A0 005:530.879   Debug reg: DWT_CID[3]
T00A0 005:530.896 - 3.158ms returns 1 (0x1)
T00A0 005:530.950 JLINK_ReadMemU32(0xE0002FD0, 0x1 Items)
T00A0 005:530.985   CPU_ReadMem(4 bytes @ 0xE0002FD0)
T00A0 005:532.907   Data:  04 00 00 00
T00A0 005:532.987   Debug reg: FP_PID4
T00A0 005:533.021 - 2.069ms returns 1 (0x1)
T00A0 005:533.120 JLINK_ReadMemU32(0xE0002FD4, 0x1 Items)
T00A0 005:533.187   CPU_ReadMem(4 bytes @ 0xE0002FD4)
T00A0 005:535.363   Data:  00 00 00 00
T00A0 005:535.450   Debug reg: FP_PID5
T00A0 005:535.467 - 2.348ms returns 1 (0x1)
T00A0 005:535.528 JLINK_ReadMemU32(0xE0002FD8, 0x1 Items)
T00A0 005:535.728   CPU_ReadMem(4 bytes @ 0xE0002FD8)
T00A0 005:537.702   Data:  00 00 00 00
T00A0 005:537.756   Debug reg: FP_PID6
T00A0 005:537.775 - 2.247ms returns 1 (0x1)
T00A0 005:537.963 JLINK_ReadMemU32(0xE0002FDC, 0x1 Items)
T00A0 005:538.118   CPU_ReadMem(4 bytes @ 0xE0002FDC)
T00A0 005:541.094   Data:  00 00 00 00
T00A0 005:541.170   Debug reg: FP_PID7
T00A0 005:541.191 - 3.227ms returns 1 (0x1)
T00A0 005:541.255 JLINK_ReadMemU32(0xE0002FE0, 0x1 Items)
T00A0 005:541.295   CPU_ReadMem(4 bytes @ 0xE0002FE0)
T00A0 005:543.191   Data:  03 00 00 00
T00A0 005:543.240   Debug reg: FP_PID[0]
T00A0 005:543.257 - 2.002ms returns 1 (0x1)
T00A0 005:543.305 JLINK_ReadMemU32(0xE0002FE4, 0x1 Items)
T00A0 005:543.337   CPU_ReadMem(4 bytes @ 0xE0002FE4)
T00A0 005:545.235   Data:  B0 00 00 00
T00A0 005:545.302   Debug reg: FP_PID[1]
T00A0 005:545.322 - 2.016ms returns 1 (0x1)
T00A0 005:545.387 JLINK_ReadMemU32(0xE0002FE8, 0x1 Items)
T00A0 005:545.428   CPU_ReadMem(4 bytes @ 0xE0002FE8)
T00A0 005:547.267   Data:  2B 00 00 00
T00A0 005:547.296   Debug reg: FP_PID[2]
T00A0 005:547.311 - 1.924ms returns 1 (0x1)
T00A0 005:547.349 JLINK_ReadMemU32(0xE0002FEC, 0x1 Items)
T00A0 005:547.376   CPU_ReadMem(4 bytes @ 0xE0002FEC)
T00A0 005:549.308   Data:  00 00 00 00
T00A0 005:549.367   Debug reg: FP_PID[3]
T00A0 005:549.391 - 2.041ms returns 1 (0x1)
T00A0 005:549.458 JLINK_ReadMemU32(0xE0002FF0, 0x1 Items)
T00A0 005:549.503   CPU_ReadMem(4 bytes @ 0xE0002FF0)
T00A0 005:553.004   Data:  0D 00 00 00
T00A0 005:553.074   Debug reg: FP_CID[0]
T00A0 005:553.091 - 3.633ms returns 1 (0x1)
T00A0 005:553.734 JLINK_ReadMemU32(0xE0002FF4, 0x1 Items)
T00A0 005:553.789   CPU_ReadMem(4 bytes @ 0xE0002FF4)
T00A0 005:555.781   Data:  E0 00 00 00
T00A0 005:555.866   Debug reg: FP_CID[1]
T00A0 005:555.887 - 2.153ms returns 1 (0x1)
T00A0 005:555.941 JLINK_ReadMemU32(0xE0002FF8, 0x1 Items)
T00A0 005:555.982   CPU_ReadMem(4 bytes @ 0xE0002FF8)
T00A0 005:558.252   Data:  05 00 00 00
T00A0 005:558.325   Debug reg: FP_CID[2]
T00A0 005:558.364 - 2.422ms returns 1 (0x1)
T00A0 005:558.414 JLINK_ReadMemU32(0xE0002FFC, 0x1 Items)
T00A0 005:558.449   CPU_ReadMem(4 bytes @ 0xE0002FFC)
T00A0 005:560.374   Data:  B1 00 00 00
T00A0 005:560.509   Debug reg: FP_CID[3]
T00A0 005:560.529 - 2.115ms returns 1 (0x1)
T00A0 005:560.593 JLINK_ReadMemU32(0xE0000FD0, 0x1 Items)
T00A0 005:560.630   CPU_ReadMem(4 bytes @ 0xE0000FD0)
T00A0 005:562.911   Data:  04 00 00 00
T00A0 005:562.981   Debug reg: ITM_PID4
T00A0 005:562.998 - 2.404ms returns 1 (0x1)
T00A0 005:563.050 JLINK_ReadMemU32(0xE0000FD4, 0x1 Items)
T00A0 005:563.084   CPU_ReadMem(4 bytes @ 0xE0000FD4)
T00A0 005:565.119   Data:  00 00 00 00
T00A0 005:565.252   Debug reg: ITM_PID5
T00A0 005:565.268 - 2.218ms returns 1 (0x1)
T00A0 005:565.319 JLINK_ReadMemU32(0xE0000FD8, 0x1 Items)
T00A0 005:565.352   CPU_ReadMem(4 bytes @ 0xE0000FD8)
T00A0 005:567.263   Data:  00 00 00 00
T00A0 005:567.341   Debug reg: ITM_PID6
T00A0 005:567.358 - 2.039ms returns 1 (0x1)
T00A0 005:567.419 JLINK_ReadMemU32(0xE0000FDC, 0x1 Items)
T00A0 005:567.453   CPU_ReadMem(4 bytes @ 0xE0000FDC)
T00A0 005:569.410   Data:  00 00 00 00
T00A0 005:569.493   Debug reg: ITM_PID7
T00A0 005:569.512 - 2.093ms returns 1 (0x1)
T00A0 005:569.566 JLINK_ReadMemU32(0xE0000FE0, 0x1 Items)
T00A0 005:569.603   CPU_ReadMem(4 bytes @ 0xE0000FE0)
T00A0 005:571.470   Data:  01 00 00 00
T00A0 005:571.490   Debug reg: ITM_PID[0]
T00A0 005:571.497 - 1.931ms returns 1 (0x1)
T00A0 005:571.513 JLINK_ReadMemU32(0xE0000FE4, 0x1 Items)
T00A0 005:571.524   CPU_ReadMem(4 bytes @ 0xE0000FE4)
T00A0 005:575.229   Data:  B0 00 00 00
T00A0 005:575.306   Debug reg: ITM_PID[1]
T00A0 005:575.323 - 3.809ms returns 1 (0x1)
T00A0 005:575.377 JLINK_ReadMemU32(0xE0000FE8, 0x1 Items)
T00A0 005:575.412   CPU_ReadMem(4 bytes @ 0xE0000FE8)
T00A0 005:577.414   Data:  3B 00 00 00
T00A0 005:577.450   Debug reg: ITM_PID[2]
T00A0 005:577.466 - 2.089ms returns 1 (0x1)
T00A0 005:577.500 JLINK_ReadMemU32(0xE0000FEC, 0x1 Items)
T00A0 005:577.525   CPU_ReadMem(4 bytes @ 0xE0000FEC)
T00A0 005:579.304   Data:  00 00 00 00
T00A0 005:579.319   Debug reg: ITM_PID[3]
T00A0 005:579.326 - 1.826ms returns 1 (0x1)
T00A0 005:579.345 JLINK_ReadMemU32(0xE0000FF0, 0x1 Items)
T00A0 005:579.357   CPU_ReadMem(4 bytes @ 0xE0000FF0)
T00A0 005:581.258   Data:  0D 00 00 00
T00A0 005:581.292   Debug reg: ITM_CID[0]
T00A0 005:581.308 - 1.961ms returns 1 (0x1)
T00A0 005:581.351 JLINK_ReadMemU32(0xE0000FF4, 0x1 Items)
T00A0 005:581.378   CPU_ReadMem(4 bytes @ 0xE0000FF4)
T00A0 005:583.869   Data:  E0 00 00 00
T00A0 005:584.521   Debug reg: ITM_CID[1]
T00A0 005:584.602 - 3.199ms returns 1 (0x1)
T00A0 005:586.504 JLINK_ReadMemU32(0xE0000FF8, 0x1 Items)
T00A0 005:586.547   CPU_ReadMem(4 bytes @ 0xE0000FF8)
T00A0 005:588.597   Data:  05 00 00 00
T00A0 005:588.631   Debug reg: ITM_CID[2]
T00A0 005:588.646 - 2.142ms returns 1 (0x1)
T00A0 005:588.680 JLINK_ReadMemU32(0xE0000FFC, 0x1 Items)
T00A0 005:588.703   CPU_ReadMem(4 bytes @ 0xE0000FFC)
T00A0 005:590.619   Data:  B1 00 00 00
T00A0 005:590.633   Debug reg: ITM_CID[3]
T00A0 005:590.639 - 1.960ms returns 1 (0x1)
T00A0 005:590.653 JLINK_ReadMemU32(0xE0040FD0, 0x1 Items)
T00A0 005:590.664   CPU_ReadMem(4 bytes @ 0xE0040FD0)
T00A0 005:592.600   Data:  04 00 00 00
T00A0 005:592.636   Debug reg: TPIU_PID4
T00A0 005:592.652 - 1.998ms returns 1 (0x1)
T00A0 005:592.687 JLINK_ReadMemU32(0xE0040FD4, 0x1 Items)
T00A0 005:592.712   CPU_ReadMem(4 bytes @ 0xE0040FD4)
T00A0 005:594.650   Data:  00 00 00 00
T00A0 005:594.674   Debug reg: TPIU_PID5
T00A0 005:594.683 - 1.996ms returns 1 (0x1)
T00A0 005:594.702 JLINK_ReadMemU32(0xE0040FD8, 0x1 Items)
T00A0 005:594.717   CPU_ReadMem(4 bytes @ 0xE0040FD8)
T00A0 005:598.321   Data:  00 00 00 00
T00A0 005:598.417   Debug reg: TPIU_PID6
T00A0 005:598.436 - 3.732ms returns 1 (0x1)
T00A0 005:598.497 JLINK_ReadMemU32(0xE0040FDC, 0x1 Items)
T00A0 005:598.539   CPU_ReadMem(4 bytes @ 0xE0040FDC)
T00A0 005:600.726   Data:  00 00 00 00
T00A0 005:600.894   Debug reg: TPIU_PID7
T00A0 005:600.916 - 2.418ms returns 1 (0x1)
T00A0 005:600.974 JLINK_ReadMemU32(0xE0040FE0, 0x1 Items)
T00A0 005:601.014   CPU_ReadMem(4 bytes @ 0xE0040FE0)
T00A0 005:605.078   Data:  A1 00 00 00
T00A0 005:605.163   Debug reg: TPIU_PID[0]
T00A0 005:605.184 - 4.210ms returns 1 (0x1)
T00A0 005:605.236 JLINK_ReadMemU32(0xE0040FE4, 0x1 Items)
T00A0 005:605.276   CPU_ReadMem(4 bytes @ 0xE0040FE4)
T00A0 005:609.027   Data:  B9 00 00 00
T00A0 005:609.208   Debug reg: TPIU_PID[1]
T00A0 005:609.232 - 3.996ms returns 1 (0x1)
T00A0 005:609.289 JLINK_ReadMemU32(0xE0040FE8, 0x1 Items)
T00A0 005:609.331   CPU_ReadMem(4 bytes @ 0xE0040FE8)
T00A0 005:611.225   Data:  0B 00 00 00
T00A0 005:611.296   Debug reg: TPIU_PID[2]
T00A0 005:611.313 - 2.023ms returns 1 (0x1)
T00A0 005:611.365 JLINK_ReadMemU32(0xE0040FEC, 0x1 Items)
T00A0 005:611.400   CPU_ReadMem(4 bytes @ 0xE0040FEC)
T00A0 005:613.414   Data:  00 00 00 00
T00A0 005:613.479   Debug reg: TPIU_PID[3]
T00A0 005:613.495 - 2.129ms returns 1 (0x1)
T00A0 005:613.558 JLINK_ReadMemU32(0xE0040FF0, 0x1 Items)
T00A0 005:613.600   CPU_ReadMem(4 bytes @ 0xE0040FF0)
T00A0 005:615.489   Data:  0D 00 00 00
T00A0 005:615.545   Debug reg: TPIU_CID[0]
T00A0 005:615.564 - 2.005ms returns 1 (0x1)
T00A0 005:615.626 JLINK_ReadMemU32(0xE0040FF4, 0x1 Items)
T00A0 005:615.666   CPU_ReadMem(4 bytes @ 0xE0040FF4)
T00A0 005:618.037   Data:  90 00 00 00
T00A0 005:618.154   Debug reg: TPIU_CID[1]
T00A0 005:618.250 - 2.623ms returns 1 (0x1)
T00A0 005:619.470 JLINK_ReadMemU32(0xE0040FF8, 0x1 Items)
T00A0 005:619.533   CPU_ReadMem(4 bytes @ 0xE0040FF8)
T00A0 005:621.715   Data:  05 00 00 00
T00A0 005:621.786   Debug reg: TPIU_CID[2]
T00A0 005:621.806 - 2.337ms returns 1 (0x1)
T00A0 005:621.874 JLINK_ReadMemU32(0xE0040FFC, 0x1 Items)
T00A0 005:621.917   CPU_ReadMem(4 bytes @ 0xE0040FFC)
T00A0 005:623.882   Data:  B1 00 00 00
T00A0 005:623.943   Debug reg: TPIU_CID[3]
T00A0 005:623.962 - 2.088ms returns 1 (0x1)
T00A0 005:624.024 JLINK_ReadMemU32(0xE0041FD0, 0x1 Items)
T00A0 005:624.077   CPU_ReadMem(4 bytes @ 0xE0041FD0)
T00A0 005:626.465   Data:  04 00 00 00
T00A0 005:626.535   Debug reg: ETM_PID4
T00A0 005:626.560 - 2.535ms returns 1 (0x1)
T00A0 005:626.664 JLINK_ReadMemU32(0xE0041FD4, 0x1 Items)
T00A0 005:626.701   CPU_ReadMem(4 bytes @ 0xE0041FD4)
T00A0 005:631.805   Data:  00 00 00 00
T00A0 005:631.906   Debug reg: ETM_PID5
T00A0 005:631.923 - 5.259ms returns 1 (0x1)
T00A0 005:632.758 JLINK_ReadMemU32(0xE0041FD8, 0x1 Items)
T00A0 005:633.020   CPU_ReadMem(4 bytes @ 0xE0041FD8)
T00A0 005:634.961   Data:  00 00 00 00
T00A0 005:635.047   Debug reg: ETM_PID6
T00A0 005:635.064 - 2.306ms returns 1 (0x1)
T00A0 005:635.116 JLINK_ReadMemU32(0xE0041FDC, 0x1 Items)
T00A0 005:635.151   CPU_ReadMem(4 bytes @ 0xE0041FDC)
T00A0 005:637.281   Data:  00 00 00 00
T00A0 005:637.355   Debug reg: ETM_PID7
T00A0 005:637.375 - 2.258ms returns 1 (0x1)
T00A0 005:637.432 JLINK_ReadMemU32(0xE0041FE0, 0x1 Items)
T00A0 005:637.471   CPU_ReadMem(4 bytes @ 0xE0041FE0)
T00A0 005:639.465   Data:  25 00 00 00
T00A0 005:639.543   Debug reg: ETM_PID[0]
T00A0 005:639.564 - 2.131ms returns 1 (0x1)
T00A0 005:639.622 JLINK_ReadMemU32(0xE0041FE4, 0x1 Items)
T00A0 005:639.661   CPU_ReadMem(4 bytes @ 0xE0041FE4)
T00A0 005:642.573   Data:  B9 00 00 00
T00A0 005:642.664   Debug reg: ETM_PID[1]
T00A0 005:642.681 - 3.059ms returns 1 (0x1)
T00A0 005:642.732 JLINK_ReadMemU32(0xE0041FE8, 0x1 Items)
T00A0 005:642.767   CPU_ReadMem(4 bytes @ 0xE0041FE8)
T00A0 005:644.817   Data:  0B 00 00 00
T00A0 005:644.898   Debug reg: ETM_PID[2]
T00A0 005:644.918 - 2.185ms returns 1 (0x1)
T00A0 005:644.974 JLINK_ReadMemU32(0xE0041FEC, 0x1 Items)
T00A0 005:645.014   CPU_ReadMem(4 bytes @ 0xE0041FEC)
T00A0 005:646.997   Data:  00 00 00 00
T00A0 005:647.089   Debug reg: ETM_PID[3]
T00A0 005:647.114 - 2.138ms returns 1 (0x1)
T00A0 005:647.182 JLINK_ReadMemU32(0xE0041FF0, 0x1 Items)
T00A0 005:647.230   CPU_ReadMem(4 bytes @ 0xE0041FF0)
T00A0 005:649.298   Data:  0D 00 00 00
T00A0 005:649.385   Debug reg: ETM_CID[0]
T00A0 005:649.434 - 2.227ms returns 1 (0x1)
T00A0 005:649.506 JLINK_ReadMemU32(0xE0041FF4, 0x1 Items)
T00A0 005:649.554   CPU_ReadMem(4 bytes @ 0xE0041FF4)
T00A0 005:651.738   Data:  90 00 00 00
T00A0 005:651.860   Debug reg: ETM_CID[1]
T00A0 005:651.948 - 2.441ms returns 1 (0x1)
T00A0 005:653.948 JLINK_ReadMemU32(0xE0041FF8, 0x1 Items)
T00A0 005:654.076   CPU_ReadMem(4 bytes @ 0xE0041FF8)
T00A0 005:656.355   Data:  05 00 00 00
T00A0 005:656.433   Debug reg: ETM_CID[2]
T00A0 005:656.454 - 2.507ms returns 1 (0x1)
T00A0 005:656.512 JLINK_ReadMemU32(0xE0041FFC, 0x1 Items)
T00A0 005:656.551   CPU_ReadMem(4 bytes @ 0xE0041FFC)
T00A0 005:658.673   Data:  B1 00 00 00
T00A0 005:658.766   Debug reg: ETM_CID[3]
T00A0 005:658.784 - 2.272ms returns 1 (0x1)
T00A0 005:658.947 JLINK_GetEmuCaps()
T00A0 005:658.974 - 0.026ms returns 0xF9FF7BFF
T00A0 005:659.025 JLINK_GetEmuCaps()
T00A0 005:659.046 - 0.020ms returns 0xF9FF7BFF
T00A0 005:660.005 JLINK_GetEmuCaps()
T00A0 005:660.050 - 0.044ms returns 0xF9FF7BFF
T00A0 005:660.076 JLINK_GetEmuCaps()
T00A0 005:660.093 - 0.016ms returns 0xF9FF7BFF
T00A0 005:660.127 JLINK_GetEmuCaps()
T00A0 005:660.145 - 0.017ms returns 0xF9FF7BFF
T00A0 005:660.166 JLINK_GetEmuCaps()
T00A0 005:660.182 - 0.015ms returns 0xF9FF7BFF
T00A0 005:660.208 JLINK_GetEmuCaps()
T00A0 005:660.225 - 0.016ms returns 0xF9FF7BFF
T00A0 005:660.246 JLINK_GetEmuCaps()
T00A0 005:660.262 - 0.015ms returns 0xF9FF7BFF
T00A0 005:660.287 JLINK_GetEmuCaps()
T00A0 005:660.304 - 0.016ms returns 0xF9FF7BFF
T00A0 005:660.324 JLINK_GetEmuCaps()
T00A0 005:660.340 - 0.015ms returns 0xF9FF7BFF
T00A0 005:660.370 JLINK_GetEmuCaps()
T00A0 005:660.387 - 0.017ms returns 0xF9FF7BFF
T00A0 005:660.587 JLINK_GetEmuCaps()
T00A0 005:660.652 - 0.066ms returns 0xF9FF7BFF
T00A0 005:660.688 JLINK_GetEmuCaps()
T00A0 005:660.806 - 0.116ms returns 0xF9FF7BFF
T00A0 005:660.832 JLINK_GetEmuCaps()
T00A0 005:660.849 - 0.016ms returns 0xF9FF7BFF
T00A0 005:660.927 JLINK_GetEmuCaps()
T00A0 005:661.026 - 0.148ms returns 0xF9FF7BFF
T00A0 005:661.088 JLINK_GetEmuCaps()
T00A0 005:661.104 - 0.015ms returns 0xF9FF7BFF
T00A0 005:661.141 JLINK_GetEmuCaps()
T00A0 005:661.155 - 0.013ms returns 0xF9FF7BFF
T00A0 005:661.174 JLINK_GetEmuCaps()
T00A0 005:661.187 - 0.013ms returns 0xF9FF7BFF
T00A0 005:661.210 JLINK_GetEmuCaps()
T00A0 005:661.223 - 0.013ms returns 0xF9FF7BFF
T00A0 005:661.240 JLINK_GetEmuCaps()
T00A0 005:661.254 - 0.012ms returns 0xF9FF7BFF
T00A0 005:662.026 JLINK_ReadMemU32(0xE0041000, 0x1 Items)
T00A0 005:662.070   CPU_ReadMem(4 bytes @ 0xE0041000)
T00A0 005:664.000   Data:  11 04 00 00
T00A0 005:664.039   Debug reg: ETM_CR
T00A0 005:664.056 - 2.030ms returns 1 (0x1)
T00A0 005:664.160 JLINK_WriteU32_64(0xE0041000, 0x00000410)
T00A0 005:664.178   Debug reg: ETM_CR
T00A0 005:665.000   CPU_WriteMem(4 bytes @ 0xE0041000)
T00A0 005:666.814 - 2.654ms returns 0 (0x00000000)
T00A0 005:666.840 JLINK_ReadMemU32(0xE0041004, 0x1 Items)
T00A0 005:666.852   CPU_ReadMem(4 bytes @ 0xE0041004)
T00A0 005:668.936   Data:  00 20 80 8C
T00A0 005:669.014   Debug reg: ETMCCR
T00A0 005:669.032 - 2.190ms returns 1 (0x1)
T00A0 005:669.089 JLINK_ReadMemU32(0xE00411E4, 0x1 Items)
T00A0 005:669.124   CPU_ReadMem(4 bytes @ 0xE00411E4)
T00A0 005:671.342   Data:  50 F2 14 41
T00A0 005:671.464   Debug reg: ETMIDR
T00A0 005:671.483 - 2.393ms returns 1 (0x1)
T00A0 005:671.596 JLINK_ReadMemU32(0xE0041014, 0x1 Items)
T00A0 005:671.681   CPU_ReadMem(4 bytes @ 0xE0041014)
T00A0 005:673.677   Data:  09 0D 02 00
T00A0 005:673.749   Debug reg: ETMSCR
T00A0 005:673.846 - 2.250ms returns 1 (0x1)
T00A0 005:673.907 JLINK_ReadMemU32(0xE000EDFC, 0x1 Items)
T00A0 005:674.078   CPU_ReadMem(4 bytes @ 0xE000EDFC)
T00A0 005:676.245   Data:  00 00 00 01
T00A0 005:676.284   Debug reg: DEMCR
T00A0 005:676.300 - 2.393ms returns 1 (0x1)
T00A0 005:676.337 JLINK_WriteU32_64(0xE000EDFC, 0x01000000)
T00A0 005:676.352   Debug reg: DEMCR
T00A0 005:676.384 - 0.046ms returns 0 (0x00000000)
T00A0 005:676.413 JLINK_ReadMemU32(0xE0040000, 0x1 Items)
T00A0 005:676.436   CPU_ReadMem(4 bytes @ 0xE0040000)
T00A0 005:678.370   Data:  0B 00 00 00
T00A0 005:678.407   Debug reg: TPIU_SSPSR
T00A0 005:678.423 - 2.009ms returns 1 (0x1)
T00A0 005:678.459 JLINK_ReadMemU32(0xE0041000, 0x1 Items)
T00A0 005:678.485   CPU_ReadMem(4 bytes @ 0xE0041000)
T00A0 005:680.274   Data:  11 04 00 00
T00A0 005:680.289   Debug reg: ETM_CR
T00A0 005:680.296 - 1.837ms returns 1 (0x1)
T00A0 005:680.311 JLINK_WriteU32_64(0xE0041000, 0x00001411)
T00A0 005:680.318   Debug reg: ETM_CR
T00A0 005:680.330   CPU_WriteMem(4 bytes @ 0xE0041000)
T00A0 005:682.169 - 1.853ms returns 0 (0x00000000)
T00A0 005:682.278 JLINK_ReadMemU32(0xE0041000, 0x1 Items)
T00A0 005:682.315   CPU_ReadMem(4 bytes @ 0xE0041000)
T00A0 005:684.220   Data:  11 04 00 00
T00A0 005:684.268   Debug reg: ETM_CR
T00A0 005:684.285 - 2.006ms returns 1 (0x1)
T00A0 005:684.333 JLINK_ReadMemU32(0xE0041000, 0x1 Items)
T00A0 005:684.364   CPU_ReadMem(4 bytes @ 0xE0041000)
T00A0 005:687.013   Data:  11 04 00 00
T00A0 005:687.085   Debug reg: ETM_CR
T00A0 005:687.102 - 2.768ms returns 1 (0x1)
T00A0 005:687.188 JLINK_WriteU32_64(0xE0041000, 0x011C041F)
T00A0 005:687.206   Debug reg: ETM_CR
T00A0 005:687.264   CPU_WriteMem(4 bytes @ 0xE0041000)
T00A0 005:689.653 - 2.462ms returns 0 (0x00000000)
T00A0 005:689.786 JLINK_ReadMemU32(0xE0041000, 0x1 Items)
T00A0 005:689.824   CPU_ReadMem(4 bytes @ 0xE0041000)
T00A0 005:691.862   Data:  11 04 00 00
T00A0 005:691.928   Debug reg: ETM_CR
T00A0 005:691.945 - 2.158ms returns 1 (0x1)
T00A0 005:694.648 JLINK_SWO_Control(JLINKARM_SWO_CMD_GET_SPEED_INFO, ...)
T00A0 005:696.097 - 1.450ms returns 0x00
T00A0 005:696.128 JLINK_ReadMemU32(0xE0001004, 0x1 Items)
T00A0 005:696.148   CPU_ReadMem(4 bytes @ 0xE0001004)
T00A0 005:698.774   Data:  C9 4C D6 63
T00A0 005:698.850   Debug reg: DWT_CYCCNT
T00A0 005:698.868 - 2.739ms returns 1 (0x1)
T00A0 005:699.538 JLINK_EMU_HasCapEx(0x00000025)
T00A0 005:699.566 - 0.028ms returns 0
T00A0 005:699.588 JLINK_EMU_COM_Read(Channel = 0x10001, NumBytes = 0x0C)
T00A0 005:699.742    -- EMUCOM is not supported by connected emulator
T00A0 005:699.770 - 0.175ms returns -1
T00A0 005:716.642 JLINK_ReadMemU32(0xE0042008, 0x1 Items)
T00A0 005:716.677   CPU_ReadMem(4 bytes @ 0xE0042008)
T00A0 005:718.561   Data:  00 18 00 00
T00A0 005:718.611   Debug reg: DBGMCU_APB1FZR1
T00A0 005:718.622 - 1.979ms returns 1 (0x1)
T00A0 005:719.056 JLINK_WriteU32_64(0xE0042008, 0x00001800)
T00A0 005:719.078   Debug reg: DBGMCU_APB1FZR1
T00A0 005:719.100 - 0.044ms returns 0 (0x00000000)
T00A0 005:719.178 JLINK_ReadMemU32(0x40022020, 0x1 Items)
T00A0 005:719.192   CPU_ReadMem(4 bytes @ 0x40022020)
T00A0 005:721.050   Data:  AA F8 FF FF
T00A0 005:721.102 - 1.924ms returns 1 (0x1)
T00A0 005:721.300 JLINK_ReadMemU32(0xE000ED94, 0x1 Items)
T00A0 005:721.326   CPU_ReadMem(4 bytes @ 0xE000ED94)
T00A0 005:723.080   Data:  00 00 00 00
T00A0 005:723.096 - 1.796ms returns 1 (0x1)
T00A0 005:723.200 JLINK_ReadMemU32(0x40021018, 0x1 Items)
T00A0 005:723.215   CPU_ReadMem(4 bytes @ 0x40021018)
T00A0 005:724.906   Data:  00 00 00 00
T00A0 005:724.926 - 1.724ms returns 1 (0x1)
T00A0 005:724.988 JLINK_ReadMemU32(0x40021000, 0x1 Items)
T00A0 005:725.003   CPU_ReadMem(4 bytes @ 0x40021000)
T00A0 005:726.722   Data:  63 00 00 00
T00A0 005:726.742 - 1.754ms returns 1 (0x1)
T00A0 005:726.804 JLINK_ReadMemU32(0x40021008, 0x1 Items)
T00A0 005:726.819   CPU_ReadMem(4 bytes @ 0x40021008)
T00A0 005:728.521   Data:  00 00 00 00
T00A0 005:728.537 - 1.733ms returns 1 (0x1)
T00A0 005:728.603 JLINK_WriteMem(0x40021018, 0x4 Bytes, ...)
T00A0 005:728.612   Data:  00 00 00 00
T00A0 005:729.014   CPU_WriteMem(4 bytes @ 0x40021018)
T00A0 005:730.774 - 2.171ms returns 0x4
T00A0 005:730.884 JLINK_WriteMem(0x40021000, 0x4 Bytes, ...)
T00A0 005:730.896   Data:  63 01 00 00
T00A0 005:730.911   CPU_WriteMem(4 bytes @ 0x40021000)
T00A0 005:732.434 - 1.549ms returns 0x4
T00A0 005:732.494 JLINK_ReadMemU32(0x40021000, 0x1 Items)
T00A0 005:732.508   CPU_ReadMem(4 bytes @ 0x40021000)
T00A0 005:734.310   Data:  63 05 00 00
T00A0 005:734.334 - 1.839ms returns 1 (0x1)
T00A0 005:734.484 JLINK_WriteMem(0x40021008, 0x4 Bytes, ...)
T00A0 005:734.496   Data:  01 00 00 00
T00A0 005:734.517   CPU_WriteMem(4 bytes @ 0x40021008)
T00A0 005:736.371 - 1.886ms returns 0x4
T00A0 005:736.489 JLINK_ReadMemU32(0x40022020, 0x1 Items)
T00A0 005:736.514   CPU_ReadMem(4 bytes @ 0x40022020)
T00A0 005:738.356   Data:  AA F8 FF FF
T00A0 005:738.381 - 1.892ms returns 1 (0x1)
T00A0 005:738.461 JLINK_ReadMemU32(0x40022000, 0x1 Items)
T00A0 005:738.480   CPU_ReadMem(4 bytes @ 0x40022000)
T00A0 005:740.189   Data:  00 06 00 00
T00A0 005:740.204 - 1.743ms returns 1 (0x1)
T00A0 005:740.327 JLINK_WriteMem(0x40022000, 0x4 Bytes, ...)
T00A0 005:740.336   Data:  02 00 00 00
T00A0 005:740.352   CPU_WriteMem(4 bytes @ 0x40022000)
T00A0 005:742.133 - 1.805ms returns 0x4
T00A0 005:742.227 JLINK_WriteMem(0x40022000, 0x4 Bytes, ...)
T00A0 005:742.238   Data:  02 18 00 00
T00A0 005:742.256   CPU_WriteMem(4 bytes @ 0x40022000)
T00A0 005:743.962 - 1.736ms returns 0x4
T00A0 005:750.402 JLINK_GetSpeed()
T00A0 005:750.433 - 0.030ms returns 1000
T00A0 005:750.448 JLINK_SetMaxSpeed()
T00A0 005:751.865 - 1.416ms
T00A0 005:751.907 JLINK_BeginDownload(Flags = 0x00000003)
T00A0 005:751.916 - 0.009ms
T00A0 005:810.063 JLINK_WriteMem(0x20000000, 0x20 Bytes, ...)
T00A0 005:810.102   Data:  00 C0 00 20 8D 02 00 20 00 00 00 00 00 00 00 00 ...
T00A0 005:810.448   CPU_WriteMem(32 bytes @ 0x20000000)
T00A0 005:811.692 - 1.630ms returns 0x20
T00A0 005:811.846 JLINK_WriteMem(0x20000040, 0x2C0 Bytes, ...)
T00A0 005:811.854   Data:  1C B5 1E 4C 61 69 63 68 A2 68 00 91 04 F1 18 00 ...
T00A0 005:811.868   CPU_WriteMem(704 bytes @ 0x20000040)
T00A0 005:817.842 - 5.995ms returns 0x2C0
T00A0 005:818.274 JLINK_ReadMemU32(0xE000EDFC, 0x1 Items)
T00A0 005:818.293   Data:  00 00 00 01
T00A0 005:818.300   Debug reg: DEMCR
T00A0 005:818.306 - 0.032ms returns 1 (0x1)
T00A0 005:818.320 JLINK_WriteU32_64(0xE000EDFC, 0x01000000)
T00A0 005:818.370   Debug reg: DEMCR
T00A0 005:818.384 - 0.064ms returns 0 (0x00000000)
T00A0 005:818.394 JLINK_ReadMemU32(0xE0001004, 0x1 Items)
T00A0 005:818.404   Data:  C9 4C D6 63
T00A0 005:818.410   Debug reg: DWT_CYCCNT
T00A0 005:818.414 - 0.020ms returns 1 (0x1)
T00A0 005:818.426 JLINK_ReadMemU32(0x20000000, 0x1 Items)
T00A0 005:818.437   CPU_ReadMem(64 bytes @ 0x20000000)
T00A0 005:820.270    -- Updating C cache (64 bytes @ 0x20000000)
T00A0 005:820.291    -- Read from C cache (4 bytes @ 0x20000000)
T00A0 005:820.298   Data:  00 C0 00 20
T00A0 005:820.304 - 1.878ms returns 1 (0x1)
T00A0 005:820.323 JLINK_ReadMemU32(0x20000004, 0x1 Items)
T00A0 005:820.332    -- Read from C cache (4 bytes @ 0x20000004)
T00A0 005:820.338   Data:  8D 02 00 20
T00A0 005:820.343 - 0.020ms returns 1 (0x1)
T00A0 005:820.577 JLINK_ReadRegs(NumRegs = 1, Indexes: 17)
T00A0 005:820.596    -- MSP=0x20002E78
T00A0 005:820.602 - 0.025ms returns 0x00
T00A0 005:820.614 JLINK_ReadRegs(NumRegs = 1, Indexes: 18)
T00A0 005:820.620    -- PSP=0x00
T00A0 005:820.626 - 0.011ms returns 0x00
T00A0 005:820.632 JLINK_ReadRegs(NumRegs = 1, Indexes: 20)
T00A0 005:820.637    -- CFBP=0x00
T00A0 005:820.642 - 0.010ms returns 0x00
T00A0 005:820.653 JLINK_WriteReg(MSP, 0x2000C000)
T00A0 005:820.664 - 0.010ms returns 0
T00A0 005:820.678 JLINK_ReadRegs(NumRegs = 1, Indexes: 15)
T00A0 005:820.686    -- R15 (PC)=0x8013478
T00A0 005:820.691 - 0.013ms returns 0x00
T00A0 005:820.699 JLINK_WriteReg(R15 (PC), 0x2000028C)
T00A0 005:820.704 - 0.005ms returns 0
T00A0 005:820.720 JLINK_ReadRegs(NumRegs = 1, Indexes: 0)
T00A0 005:820.726    -- R0=0x00
T00A0 005:820.730 - 0.011ms returns 0x00
T00A0 005:820.737 JLINK_ReadRegs(NumRegs = 1, Indexes: 1)
T00A0 005:820.742    -- R1=0x00
T00A0 005:820.747 - 0.010ms returns 0x00
T00A0 005:820.753 JLINK_ReadRegs(NumRegs = 1, Indexes: 2)
T00A0 005:820.758    -- R2=0x00
T00A0 005:820.763 - 0.009ms returns 0x00
T00A0 005:820.769 JLINK_ReadRegs(NumRegs = 1, Indexes: 3)
T00A0 005:820.774    -- R3=0x00
T00A0 005:820.779 - 0.010ms returns 0x00
T00A0 005:820.785 JLINK_ReadRegs(NumRegs = 1, Indexes: 4)
T00A0 005:820.790    -- R4=0x00
T00A0 005:820.795 - 0.009ms returns 0x00
T00A0 005:820.801 JLINK_ReadRegs(NumRegs = 1, Indexes: 5)
T00A0 005:820.806    -- R5=0x00
T00A0 005:820.811 - 0.010ms returns 0x00
T00A0 005:820.817 JLINK_ReadRegs(NumRegs = 1, Indexes: 6)
T00A0 005:820.822    -- R6=0x00
T00A0 005:820.827 - 0.009ms returns 0x00
T00A0 005:820.833 JLINK_ReadRegs(NumRegs = 1, Indexes: 7)
T00A0 005:820.838    -- R7=0x00
T00A0 005:820.843 - 0.009ms returns 0x00
T00A0 005:820.849 JLINK_ReadRegs(NumRegs = 1, Indexes: 8)
T00A0 005:820.856    -- R8=0x00
T00A0 005:820.861 - 0.012ms returns 0x00
T00A0 005:820.867 JLINK_ReadRegs(NumRegs = 1, Indexes: 9)
T00A0 005:820.872    -- R9=0x00
T00A0 005:820.876 - 0.009ms returns 0x00
T00A0 005:820.883 JLINK_ReadRegs(NumRegs = 1, Indexes: 10)
T00A0 005:820.888    -- R10=0x00
T00A0 005:820.893 - 0.010ms returns 0x00
T00A0 005:820.899 JLINK_ReadRegs(NumRegs = 1, Indexes: 11)
T00A0 005:820.904    -- R11=0x00
T00A0 005:820.909 - 0.010ms returns 0x00
T00A0 005:820.916 JLINK_ReadRegs(NumRegs = 1, Indexes: 12)
T00A0 005:820.920    -- R12=0x00
T00A0 005:820.925 - 0.009ms returns 0x00
T00A0 005:820.932 JLINK_ReadRegs(NumRegs = 1, Indexes: 17)
T00A0 005:820.936    -- MSP=0x2000C000
T00A0 005:820.942 - 0.010ms returns 0x00
T00A0 005:820.948 JLINK_ReadRegs(NumRegs = 1, Indexes: 18)
T00A0 005:820.952    -- PSP=0x00
T00A0 005:820.958 - 0.009ms returns 0x00
T00A0 005:820.964 JLINK_ReadRegs(NumRegs = 1, Indexes: 14)
T00A0 005:820.968    -- R14=0xFFFFFFFF
T00A0 005:820.975 - 0.011ms returns 0x00
T00A0 005:820.982 JLINK_ReadRegs(NumRegs = 1, Indexes: 15)
T00A0 005:820.987    -- R15 (PC)=0x2000028C
T00A0 005:821.000 - 0.018ms returns 0x00
T00A0 005:821.006 JLINK_ReadRegs(NumRegs = 1, Indexes: 16)
T00A0 005:821.012    -- XPSR=0x1000000
T00A0 005:821.017 - 0.010ms returns 0x00
T00A0 005:821.023 JLINK_ReadRegs(NumRegs = 1, Indexes: 20)
T00A0 005:821.030    -- CFBP=0x00
T00A0 005:821.036 - 0.013ms returns 0x00
T00A0 005:821.049 JLINK_WriteReg(XPSR, 0x01000000)
T00A0 005:821.055 - 0.005ms returns 0
T00A0 005:821.092 JLINK_ReadRegs(NumRegs = 1, Indexes: 15)
T00A0 005:821.099    -- R15 (PC)=0x2000028C
T00A0 005:821.104 - 0.011ms returns 0x00
T00A0 005:823.460 JLINK_WriteMem(0x2000BDA0, 0x4 Bytes, ...)
T00A0 005:823.476   Data:  00 00 00 00
T00A0 005:823.496   CPU_WriteMem(4 bytes @ 0x2000BDA0)
T00A0 005:825.072 - 1.612ms returns 0x4
T00A0 005:825.262 JLINK_WriteMem(0x2000BD8C, 0x14 Bytes, ...)
T00A0 005:825.298   Data:  00 00 00 08 00 00 00 00 00 00 00 08 00 03 00 20 ...
T00A0 005:825.313   CPU_WriteMem(20 bytes @ 0x2000BD8C)
T00A0 005:826.972 - 1.718ms returns 0x14
T00A0 005:827.072 JLINK_WriteReg(R15 (PC), 0x2000028C)
T00A0 005:827.083 - 0.011ms returns 0
T00A0 005:827.102 JLINK_ReadRegs(NumRegs = 1, Indexes: 0)
T00A0 005:827.110    -- R0=0x00
T00A0 005:827.116 - 0.013ms returns 0x00
T00A0 005:827.122 JLINK_ReadRegs(NumRegs = 1, Indexes: 1)
T00A0 005:827.128    -- R1=0x00
T00A0 005:827.133 - 0.010ms returns 0x00
T00A0 005:827.139 JLINK_ReadRegs(NumRegs = 1, Indexes: 2)
T00A0 005:827.144    -- R2=0x00
T00A0 005:827.150 - 0.010ms returns 0x00
T00A0 005:827.156 JLINK_ReadRegs(NumRegs = 1, Indexes: 3)
T00A0 005:827.161    -- R3=0x00
T00A0 005:827.166 - 0.010ms returns 0x00
T00A0 005:827.172 JLINK_ReadRegs(NumRegs = 1, Indexes: 4)
T00A0 005:827.177    -- R4=0x00
T00A0 005:827.182 - 0.010ms returns 0x00
T00A0 005:827.188 JLINK_ReadRegs(NumRegs = 1, Indexes: 5)
T00A0 005:827.194    -- R5=0x00
T00A0 005:827.198 - 0.010ms returns 0x00
T00A0 005:827.205 JLINK_ReadRegs(NumRegs = 1, Indexes: 6)
T00A0 005:827.210    -- R6=0x00
T00A0 005:827.215 - 0.010ms returns 0x00
T00A0 005:827.221 JLINK_ReadRegs(NumRegs = 1, Indexes: 7)
T00A0 005:827.226    -- R7=0x00
T00A0 005:827.231 - 0.010ms returns 0x00
T00A0 005:827.237 JLINK_ReadRegs(NumRegs = 1, Indexes: 8)
T00A0 005:827.242    -- R8=0x00
T00A0 005:827.247 - 0.010ms returns 0x00
T00A0 005:827.253 JLINK_ReadRegs(NumRegs = 1, Indexes: 9)
T00A0 005:827.258    -- R9=0x00
T00A0 005:827.263 - 0.009ms returns 0x00
T00A0 005:827.269 JLINK_ReadRegs(NumRegs = 1, Indexes: 10)
T00A0 005:827.274    -- R10=0x00
T00A0 005:827.280 - 0.010ms returns 0x00
T00A0 005:827.286 JLINK_ReadRegs(NumRegs = 1, Indexes: 11)
T00A0 005:827.290    -- R11=0x00
T00A0 005:827.296 - 0.010ms returns 0x00
T00A0 005:827.302 JLINK_ReadRegs(NumRegs = 1, Indexes: 12)
T00A0 005:827.307    -- R12=0x00
T00A0 005:827.312 - 0.010ms returns 0x00
T00A0 005:827.318 JLINK_ReadRegs(NumRegs = 1, Indexes: 17)
T00A0 005:827.323    -- MSP=0x2000C000
T00A0 005:827.328 - 0.010ms returns 0x00
T00A0 005:827.334 JLINK_ReadRegs(NumRegs = 1, Indexes: 18)
T00A0 005:827.340    -- PSP=0x00
T00A0 005:827.345 - 0.010ms returns 0x00
T00A0 005:827.351 JLINK_ReadRegs(NumRegs = 1, Indexes: 14)
T00A0 005:827.356    -- R14=0xFFFFFFFF
T00A0 005:827.361 - 0.010ms returns 0x00
T00A0 005:827.367 JLINK_ReadRegs(NumRegs = 1, Indexes: 15)
T00A0 005:827.372    -- R15 (PC)=0x2000028C
T00A0 005:827.378 - 0.010ms returns 0x00
T00A0 005:827.384 JLINK_ReadRegs(NumRegs = 1, Indexes: 16)
T00A0 005:827.389    -- XPSR=0x1000000
T00A0 005:827.394 - 0.010ms returns 0x00
T00A0 005:827.400 JLINK_ReadRegs(NumRegs = 1, Indexes: 20)
T00A0 005:827.406    -- CFBP=0x00
T00A0 005:827.410 - 0.010ms returns 0x00
T00A0 005:827.420 JLINK_WriteReg(XPSR, 0x01000000)
T00A0 005:827.426 - 0.006ms returns 0
T00A0 005:827.548 JLINK_SetBPEx(Addr = 0x200000C0, Type = 0xFFFFFFF2)
T00A0 005:827.566   CPU_ReadMem(2 bytes @ 0x200000C0)
T00A0 005:829.106 - 1.558ms returns 0x00000001
T00A0 005:829.142 JLINK_WriteVectorCatch(0x00000000)
T00A0 005:829.153 - 0.011ms returns 0
T0D78 005:830.960 JLINK_ReadRegs(NumRegs = 1, Indexes: 15)
T0D78 005:831.001    -- R15 (PC)=0x2000028C
T0D78 005:831.016 - 0.060ms returns 0x00
T0D78 005:831.112 JLINK_ReadMemU16(0x2000028C, 0x1 Items)
T0D78 005:831.162   CPU_ReadMem(64 bytes @ 0x20000280)
T0D78 005:833.175    -- Updating C cache (64 bytes @ 0x20000280)
T0D78 005:833.196    -- Read from C cache (2 bytes @ 0x2000028C)
T0D78 005:833.204   Data:  FF F7
T0D78 005:833.210 - 2.100ms returns 1 (0x1)
T0D78 005:833.260 JLINK_WriteVectorCatch(0x00000000)
T0D78 005:833.271 - 0.011ms returns 0
T0D78 005:833.283 JLINK_ReadMemU32(0xE000EDFC, 0x1 Items)
T0D78 005:833.293   Data:  00 00 00 01
T0D78 005:833.298   Debug reg: DEMCR
T0D78 005:833.304 - 0.020ms returns 1 (0x1)
T0D78 005:833.315 JLINK_WriteU32_64(0xE000EDFC, 0x01000000)
T0D78 005:833.320   Debug reg: DEMCR
T0D78 005:833.330   CPU_WriteMem(2 bytes @ 0x200000C0)
T0D78 005:834.918 - 1.601ms returns 0 (0x00000000)
T0D78 005:834.940 JLINK_ReadMemU32(0xE0002000, 0x1 Items)
T0D78 005:834.950   CPU_ReadMem(4 bytes @ 0xE0002000)
T0D78 005:836.568   Data:  61 02 00 00
T0D78 005:836.591 - 1.650ms returns 1 (0x1)
T0D78 005:836.609 JLINK_ReadMemU32(0xE0002000, 0x1 Items)
T0D78 005:836.621   CPU_ReadMem(4 bytes @ 0xE0002000)
T0D78 005:838.186   Data:  61 02 00 00
T0D78 005:838.198 - 1.588ms returns 1 (0x1)
T0D78 005:838.209 JLINK_ReadMemU32(0xE0001000, 0x1 Items)
T0D78 005:838.217   CPU_ReadMem(4 bytes @ 0xE0001000)
T0D78 005:839.753   Data:  01 00 00 40
T0D78 005:839.768   Debug reg: DWT_CTRL
T0D78 005:839.774 - 1.564ms returns 1 (0x1)
T0D78 005:839.788 JLINK_ReadMemU32(0xE000EDFC, 0x1 Items)
T0D78 005:839.798   Data:  00 00 00 01
T0D78 005:839.804   Debug reg: DEMCR
T0D78 005:839.809 - 0.021ms returns 1 (0x1)
T0D78 005:839.820 JLINK_WriteU32_64(0xE000EDFC, 0x01000000)
T0D78 005:839.825   Debug reg: DEMCR
T0D78 005:839.836 - 0.016ms returns 0 (0x00000000)
T0D78 005:839.845 JLINK_WriteU32_64(0xE0001028, 0x00000000)
T0D78 005:839.851   Debug reg: DWT_FUNC[0]
T0D78 005:839.860 - 0.014ms returns 0 (0x00000000)
T0D78 005:839.868 JLINK_WriteU32_64(0xE0001038, 0x00000000)
T0D78 005:839.874   Debug reg: DWT_FUNC[1]
T0D78 005:839.882 - 0.013ms returns 0 (0x00000000)
T0D78 005:839.890 JLINK_WriteU32_64(0xE0001048, 0x00000000)
T0D78 005:839.896   Debug reg: DWT_FUNC[2]
T0D78 005:839.904 - 0.013ms returns 0 (0x00000000)
T0D78 005:839.912 JLINK_WriteU32_64(0xE0001058, 0x00000000)
T0D78 005:839.916   Debug reg: DWT_FUNC[3]
T0D78 005:839.925 - 0.013ms returns 0 (0x00000000)
T0D78 005:839.991 JLINK_Go()
T0D78 005:840.022   CPU_ReadMem(4 bytes @ 0xE0001000)
T0D78 005:841.611   CPU_WriteMem(4 bytes @ 0xE0001028)
T0D78 005:841.624   CPU_WriteMem(4 bytes @ 0xE0001038)
T0D78 005:841.629   CPU_WriteMem(4 bytes @ 0xE0001048)
T0D78 005:841.634   CPU_WriteMem(4 bytes @ 0xE0001058)
T0D78 005:841.640   CPU_WriteMem(4 bytes @ 0xE0002008)
T0D78 005:841.646   CPU_WriteMem(4 bytes @ 0xE000200C)
T0D78 005:841.651   CPU_WriteMem(4 bytes @ 0xE0002010)
T0D78 005:841.656   CPU_WriteMem(4 bytes @ 0xE0002014)
T0D78 005:841.662   CPU_WriteMem(4 bytes @ 0xE0002018)
T0D78 005:841.667   CPU_WriteMem(4 bytes @ 0xE000201C)
T0D78 005:848.484   Memory map 'after startup completion point' is active
T0D78 005:848.499 - 8.507ms
T0D78 005:850.690 JLINK_IsHalted()
T0D78 005:856.337   CPU_ReadMem(2 bytes @ 0x200000C0)
T0D78 005:857.888 - 7.196ms returns TRUE
T0D78 005:857.948 JLINK_ReadRegs(NumRegs = 1, Indexes: 15)
T0D78 005:857.958    -- R15 (PC)=0x200000C0
T0D78 005:857.964 - 0.015ms returns 0x00
T0D78 005:857.978 JLINK_ReadMemU16(0x200000C0, 0x1 Items)
T0D78 005:857.987    -- Merging existing BP[0]: 0xE7FE @ 0x200000C0
T0D78 005:857.992    -- Merging existing BP[0]: 0xE7FE @ 0x200000C0
T0D78 005:857.999   Data:  FE E7
T0D78 005:858.005 - 0.027ms returns 1 (0x1)
T0D78 005:858.016 JLINK_ReadMemU32(0xE000EDFC, 0x1 Items)
T0D78 005:858.024   Data:  00 00 00 01
T0D78 005:858.030   Debug reg: DEMCR
T0D78 005:858.036 - 0.020ms returns 1 (0x1)
T0D78 005:858.049 JLINK_WriteU32_64(0xE000EDFC, 0x01000000)
T0D78 005:858.054   Debug reg: DEMCR
T0D78 005:858.064 - 0.014ms returns 0 (0x00000000)
T0D78 005:858.073 JLINK_WriteVectorCatch(0x00000000)
T0D78 005:858.080 - 0.007ms returns 0
T0D78 005:858.088 JLINK_WriteU32_64(0xE0001028, 0x00000000)
T0D78 005:858.094   Debug reg: DWT_FUNC[0]
T0D78 005:858.106 - 0.018ms returns 0 (0x00000000)
T0D78 005:858.115 JLINK_WriteU32_64(0xE0001038, 0x00000000)
T0D78 005:858.120   Debug reg: DWT_FUNC[1]
T0D78 005:858.128 - 0.013ms returns 0 (0x00000000)
T0D78 005:858.136 JLINK_WriteU32_64(0xE0001048, 0x00000000)
T0D78 005:858.141   Debug reg: DWT_FUNC[2]
T0D78 005:858.149 - 0.012ms returns 0 (0x00000000)
T0D78 005:858.157 JLINK_WriteU32_64(0xE0001058, 0x00000000)
T0D78 005:858.162   Debug reg: DWT_FUNC[3]
T0D78 005:858.169 - 0.012ms returns 0 (0x00000000)
T0D78 005:858.606 JLINK_ReadMemU32(0x2000BD8C, 0x5 Items)
T0D78 005:858.627   CPU_ReadMem(20 bytes @ 0x2000BD8C)
T0D78 005:860.295   Data:  00 00 00 08 00 00 00 00 00 00 00 08 00 03 00 20 ...
T0D78 005:860.308 - 1.703ms returns 5 (0x5)
T0D78 005:860.605 JLINK_WriteMem(0x20000300, 0xB8 Bytes, ...)
T0D78 005:860.614   Data:  00 00 00 08 00 08 00 00 00 08 00 08 00 08 00 00 ...
T0D78 005:860.630   CPU_WriteMem(184 bytes @ 0x20000300)
T0D78 005:863.280 - 2.674ms returns 0xB8
T0D78 005:863.334 JLINK_WriteMem(0x2000BD8C, 0x14 Bytes, ...)
T0D78 005:863.342   Data:  00 00 00 00 17 00 00 00 00 00 00 00 00 03 00 20 ...
T0D78 005:863.353   CPU_WriteMem(20 bytes @ 0x2000BD8C)
T0D78 005:864.990 - 1.656ms returns 0x14
T0D78 005:865.046 JLINK_WriteReg(R15 (PC), 0x2000029C)
T0D78 005:865.056 - 0.009ms returns 0
T0D78 005:865.072 JLINK_ReadRegs(NumRegs = 1, Indexes: 0)
T0D78 005:865.080    -- R0=0x00
T0D78 005:865.086 - 0.013ms returns 0x00
T0D78 005:865.093 JLINK_ReadRegs(NumRegs = 1, Indexes: 1)
T0D78 005:865.099    -- R1=0x2000BDA4
T0D78 005:865.104 - 0.011ms returns 0x00
T0D78 005:865.112 JLINK_ReadRegs(NumRegs = 1, Indexes: 2)
T0D78 005:865.117    -- R2=0x00
T0D78 005:865.123 - 0.011ms returns 0x00
T0D78 005:865.130 JLINK_ReadRegs(NumRegs = 1, Indexes: 3)
